
T1C30 000:357 SEGGER J-Link V4.96d Log File (0001ms, 0263ms total)
T1C30 000:357 DLL Compiled: Jan 29 2015 11:45:37 (0001ms, 0263ms total)
T1C30 000:357 Logging started @ 2018-07-23 17:45 (0001ms, 0263ms total)
T1C30 000:358 JLINK_SetWarnOutHandler(...) (0000ms, 0263ms total)
T1C30 000:358 JLINK_OpenEx(...)
Firmware: J-Link ARM V8 compiled Nov 28 2014 13:44:46
Hardware: V8.00
Feature(s): RDI,FlashDL,FlashBP,JFlash,GDB  returns O.K. (0264ms, 0527ms total)
T1C30 000:622 JLINK_SetErrorOutHandler(...) (0000ms, 0527ms total)
T1C30 000:622 JLINK_ExecCommand("ProjectFile = "C:\Users\Administrator\Desktop\ÐÂ²¹¸øÕ¾\²¹¸øÕ¾20180718\JLinkSettings.ini"", ...)  returns 0x00 (0000ms, 0527ms total)
T1C30 000:627 JLINK_ExecCommand("Device = STM32F405RG", ...)Device "STM32F405RG" selected.  returns 0x00 (0022ms, 0549ms total)
T1C30 000:649 JLINK_ExecCommand("DisableConnectionTimeout", ...)  returns 0x01 (0000ms, 0549ms total)
T1C30 000:649 JLINK_GetHardwareVersion()  returns 0x13880 (0000ms, 0549ms total)
T1C30 000:649 JLINK_GetDLLVersion()  returns 49604 (0000ms, 0549ms total)
T1C30 000:649 JLINK_GetFirmwareString(...) (0000ms, 0549ms total)
T1C30 000:670 JLINK_GetDLLVersion()  returns 49604 (0000ms, 0549ms total)
T1C30 000:670 JLINK_GetCompileDateTime() (0000ms, 0549ms total)
T1C30 000:674 JLINK_GetFirmwareString(...) (0000ms, 0549ms total)
T1C30 000:678 JLINK_GetHardwareVersion()  returns 0x13880 (0000ms, 0549ms total)
T1C30 000:690 JLINK_TIF_Select(JLINKARM_TIF_SWD)  returns 0x00 (0001ms, 0550ms total)
T1C30 000:691 JLINK_SetSpeed(10000) (0001ms, 0551ms total)
T1C30 000:692 JLINK_GetId() >0x108 TIF>Found SWD-DP with ID 0x2BA01477 >0x0D TIF> >0x28 TIF> >0x0D TIF> >0x28 TIF> >0x0D TIF> >0x21 TIF> >0x0D TIF> >0x28 TIF> >0x0D TIF> >0x28 TIF> >0x0D TIF> >0x28 TIF> >0x0D TIF> >0x21 TIF> >0x0D TIF> >0x21 TIF> >0x0D TIF> >0x28 TIF> >0x0D TIF> >0x21 TIF> >0x0D TIF> >0x21 TIF> >0x0D TIF> >0x28 TIF> >0x0D TIF> >0x28 TIF> >0x0D TIF> >0x28 TIF> >0x0D TIF> >0x21 TIF> >0x0D TIF> >0x21 TIF> >0x0D TIF> >0x28 TIF> >0x0D TIF> >0x28 TIF> >0x108 TIF>Found SWD-DP with ID 0x2BA01477
 >0x0D TIF> >0x21 TIF> >0x0D TIF> >0x28 TIF> >0x0D TIF> >0x28 TIF> >0x0D TIF> >0x21 TIF> >0x0D TIF> >0x28 TIF> >0x0D TIF> >0x21 TIF> >0x0D TIF> >0x21 TIF> >0x0D TIF> >0x21 TIF> >0x0D TIF> >0x21 TIF> >0x0D TIF> >0x28 TIF> >0x0D TIF> >0x28 TIF> >0x0D TIF> >0x21 TIF> >0x0D TIF> >0x28 TIF> >0x0D TIF> >0x28 TIF> >0x0D TIF> >0x28 TIF> >0x0D TIF> >0x21 TIF> >0x0D TIF> >0x21 TIF> >0x0D TIF> >0x28 TIF> >0x0D TIF> >0x21 TIF> >0x0D TIF> >0x21 TIF>Found Cortex-M4 r0p1, Little endian.
 -- CPU_WriteMem(4 bytes @ 0xE0002000) -- CPU_ReadMem(4 bytes @ 0xE000EDF0) -- CPU_WriteMem(4 bytes @ 0xE000EDF0) -- CPU_ReadMem(4 bytes @ 0xE0002000)FPUnit: 6 code (BP) slots and 2 literal slots -- CPU_ReadMem(4 bytes @ 0xE000EDFC) -- CPU_WriteMem(4 bytes @ 0xE000EDFC) -- CPU_ReadMem(4 bytes @ 0xE0001000) -- CPU_WriteMem(4 bytes @ 0xE0001000) -- CPU_ReadMem(4 bytes @ 0xE000ED88) -- CPU_WriteMem(4 bytes @ 0xE000ED88) -- CPU_ReadMem(4 bytes @ 0xE000ED88) -- CPU_WriteMem(4 bytes @ 0xE000ED88)
 -- CPU_ReadMem(4 bytes @ 0xE00FF010)TPIU fitted. -- CPU_ReadMem(4 bytes @ 0xE00FF014)ETM fitted. -- CPU_ReadMem(4 bytes @ 0xE00FF018) >0x0D TIF> >0x21 TIF>  returns 0x2BA01477 (0070ms, 0621ms total)
T1C30 000:762 JLINK_GetDLLVersion()  returns 49604 (0000ms, 0621ms total)
T1C30 000:762 JLINK_CORE_GetFound()  returns 0xE0000FF (0000ms, 0621ms total)
T1C30 000:762 JLINK_GetDebugInfo(0x100) -- Value=0xE00FF003  returns 0x00 (0000ms, 0621ms total)
T1C30 000:769 JLINK_ReadMem (0xE00FF000, 0x0020 Bytes, ...) -- CPU is running -- CPU_ReadMem(32 bytes @ 0xE00FF000) - Data: 03 F0 F0 FF 03 20 F0 FF 03 30 F0 FF 03 10 F0 FF ...  returns 0x00 (0001ms, 0622ms total)
T1C30 000:770 JLINK_ReadMem (0xE000EFF0, 0x0010 Bytes, ...) -- CPU is running -- CPU_ReadMem(16 bytes @ 0xE000EFF0) - Data: 0D 00 00 00 E0 00 00 00 05 00 00 00 B1 00 00 00  returns 0x00 (0001ms, 0623ms total)
T1C30 000:771 JLINK_ReadMem (0xE000EFD0, 0x0020 Bytes, ...) -- CPU is running -- CPU_ReadMem(32 bytes @ 0xE000EFD0) - Data: 04 00 00 00 00 00 00 00 00 00 00 00 00 00 00 00 ...  returns 0x00 (0001ms, 0624ms total)
T1C30 000:772 JLINK_ReadMem (0xE0001FF0, 0x0010 Bytes, ...) -- CPU is running -- CPU_ReadMem(16 bytes @ 0xE0001FF0) - Data: 0D 00 00 00 E0 00 00 00 05 00 00 00 B1 00 00 00  returns 0x00 (0001ms, 0625ms total)
T1C30 000:773 JLINK_ReadMem (0xE0001FD0, 0x0020 Bytes, ...) -- CPU is running -- CPU_ReadMem(32 bytes @ 0xE0001FD0) - Data: 04 00 00 00 00 00 00 00 00 00 00 00 00 00 00 00 ...  returns 0x00 (0000ms, 0625ms total)
T1C30 000:773 JLINK_ReadMem (0xE0002FF0, 0x0010 Bytes, ...) -- CPU is running -- CPU_ReadMem(16 bytes @ 0xE0002FF0) - Data: 0D 00 00 00 E0 00 00 00 05 00 00 00 B1 00 00 00  returns 0x00 (0001ms, 0626ms total)
T1C30 000:774 JLINK_ReadMem (0xE0002FD0, 0x0020 Bytes, ...) -- CPU is running -- CPU_ReadMem(32 bytes @ 0xE0002FD0) - Data: 04 00 00 00 00 00 00 00 00 00 00 00 00 00 00 00 ...  returns 0x00 (0001ms, 0627ms total)
T1C30 000:775 JLINK_ReadMem (0xE0000FF0, 0x0010 Bytes, ...) -- CPU is running -- CPU_ReadMem(16 bytes @ 0xE0000FF0) - Data: 0D 00 00 00 E0 00 00 00 05 00 00 00 B1 00 00 00  returns 0x00 (0001ms, 0628ms total)
T1C30 000:776 JLINK_ReadMem (0xE0000FD0, 0x0020 Bytes, ...) -- CPU is running -- CPU_ReadMem(32 bytes @ 0xE0000FD0) - Data: 04 00 00 00 00 00 00 00 00 00 00 00 00 00 00 00 ...  returns 0x00 (0001ms, 0629ms total)
T1C30 000:777 JLINK_ReadMem (0xE0040FF0, 0x0010 Bytes, ...) -- CPU is running -- CPU_ReadMem(16 bytes @ 0xE0040FF0) - Data: 0D 00 00 00 90 00 00 00 05 00 00 00 B1 00 00 00  returns 0x00 (0000ms, 0629ms total)
T1C30 000:777 JLINK_ReadMem (0xE0040FD0, 0x0020 Bytes, ...) -- CPU is running -- CPU_ReadMem(32 bytes @ 0xE0040FD0) - Data: 04 00 00 00 00 00 00 00 00 00 00 00 00 00 00 00 ...  returns 0x00 (0001ms, 0630ms total)
T1C30 000:778 JLINK_ReadMem (0xE0041FF0, 0x0010 Bytes, ...) -- CPU is running -- CPU_ReadMem(16 bytes @ 0xE0041FF0) - Data: 0D 00 00 00 90 00 00 00 05 00 00 00 B1 00 00 00  returns 0x00 (0001ms, 0631ms total)
T1C30 000:779 JLINK_ReadMem (0xE0041FD0, 0x0020 Bytes, ...) -- CPU is running -- CPU_ReadMem(32 bytes @ 0xE0041FD0) - Data: 04 00 00 00 00 00 00 00 00 00 00 00 00 00 00 00 ...  returns 0x00 (0001ms, 0632ms total)
T1C30 000:780 JLINK_ReadMemU32(0xE000EF40, 0x0001 Items, ...) -- CPU is running -- CPU_ReadMem(4 bytes @ 0xE000EF40) - Data: 21 00 11 10  returns 0x01 (0000ms, 0632ms total)
T1C30 000:780 JLINK_ReadMemU32(0xE000EF44, 0x0001 Items, ...) -- CPU is running -- CPU_ReadMem(4 bytes @ 0xE000EF44) - Data: 11 00 00 11  returns 0x01 (0001ms, 0633ms total)
T1C30 000:781 JLINK_ReadMemU32(0xE000ED00, 0x0001 Items, ...) -- CPU is running -- CPU_ReadMem(4 bytes @ 0xE000ED00) - Data: 41 C2 0F 41  returns 0x01 (0000ms, 0633ms total)
T1C30 000:781 JLINK_SetResetType(JLINKARM_RESET_TYPE_NORMAL)  returns JLINKARM_RESET_TYPE_NORMAL (0000ms, 0633ms total)
T1C30 000:781 JLINK_Reset() -- CPU is running -- CPU_WriteMem(4 bytes @ 0xE000EDF0) -- CPU is running -- CPU_WriteMem(4 bytes @ 0xE000EDFC) >0x35 TIF> -- CPU is running -- CPU_WriteMem(4 bytes @ 0xE000ED0C) -- CPU is running -- CPU_ReadMem(4 bytes @ 0xE000EDF0) -- CPU is running -- CPU_ReadMem(4 bytes @ 0xE000EDF0) -- CPU is running -- CPU_WriteMem(4 bytes @ 0xE000EDF0) -- CPU is running -- CPU_WriteMem(4 bytes @ 0xE000EDFC) -- CPU is running -- CPU_ReadMem(4 bytes @ 0xE000EDF0)
 -- CPU_WriteMem(4 bytes @ 0xE0002000) -- CPU_ReadMem(4 bytes @ 0xE000EDFC) -- CPU_ReadMem(4 bytes @ 0xE0001000) (0019ms, 0652ms total)
T1C30 000:800 JLINK_Halt()  returns 0x00 (0000ms, 0652ms total)
T1C30 000:800 JLINK_IsHalted()  returns TRUE (0000ms, 0652ms total)
T1C30 000:800 JLINK_ReadMemU32(0xE000EDF0, 0x0001 Items, ...) -- CPU_ReadMem(4 bytes @ 0xE000EDF0) - Data: 03 00 03 00  returns 0x01 (0001ms, 0653ms total)
T1C30 000:801 JLINK_WriteU32(0xE000EDF0, 0xA05F0003) -- CPU_WriteMem(4 bytes @ 0xE000EDF0)  returns 0x00 (0000ms, 0653ms total)
T1C30 000:801 JLINK_WriteU32(0xE000EDFC, 0x01000000) -- CPU_WriteMem(4 bytes @ 0xE000EDFC)  returns 0x00 (0001ms, 0654ms total)
T1C30 000:818 JLINK_GetHWStatus(...)  returns 0x00 (0000ms, 0654ms total)
T1C30 000:832 JLINK_GetNumBPUnits(Type = 0xFFFFFF00)  returns 0x06 (0000ms, 0654ms total)
T1C30 000:832 JLINK_GetNumBPUnits(Type = 0xF0)  returns 0x2000 (0000ms, 0654ms total)
T1C30 000:832 JLINK_GetNumWPUnits()  returns 0x04 (0000ms, 0654ms total)
T1C30 000:844 JLINK_GetSpeed()  returns 0xFA0 (0000ms, 0654ms total)
T1C30 000:851 JLINK_ReadMemU32(0xE000E004, 0x0001 Items, ...) -- CPU_ReadMem(4 bytes @ 0xE000E004) - Data: 02 00 00 00  returns 0x01 (0001ms, 0655ms total)
T1C30 000:852 JLINK_ReadMemU32(0xE000E004, 0x0001 Items, ...) -- CPU_ReadMem(4 bytes @ 0xE000E004) - Data: 02 00 00 00  returns 0x01 (0001ms, 0656ms total)
T1C30 000:853 JLINK_WriteMem(0xE0001000, 0x001C Bytes, ...) - Data: 01 00 00 00 00 00 00 00 00 00 00 00 00 00 00 00 ... -- CPU_WriteMem(28 bytes @ 0xE0001000)  returns 0x1C (0001ms, 0657ms total)
T1C30 000:854 JLINK_ReadMem (0xE0001000, 0x001C Bytes, ...) -- CPU_ReadMem(28 bytes @ 0xE0001000) - Data: 01 00 00 40 00 00 00 00 00 00 00 00 00 00 00 00 ...  returns 0x00 (0001ms, 0658ms total)
T1C30 000:855 JLINK_Halt()  returns 0x00 (0000ms, 0658ms total)
T1C30 000:855 JLINK_IsHalted()  returns TRUE (0000ms, 0658ms total)
T1C30 000:858 JLINK_WriteMem(0x20000000, 0x0180 Bytes, ...) - Data: 00 BE 0A E0 0D 78 2D 06 68 40 08 24 40 00 00 D3 ... -- CPU_WriteMem(384 bytes @ 0x20000000)  returns 0x180 (0004ms, 0662ms total)
T1C30 000:862 JLINK_WriteReg(R0, 0x08000000)  returns 0x00 (0000ms, 0662ms total)
T1C30 000:862 JLINK_WriteReg(R1, 0x00B71B00)  returns 0x00 (0000ms, 0662ms total)
T1C30 000:862 JLINK_WriteReg(R2, 0x00000001)  returns 0x00 (0000ms, 0662ms total)
T1C30 000:862 JLINK_WriteReg(R3, 0x00000000)  returns 0x00 (0000ms, 0662ms total)
T1C30 000:862 JLINK_WriteReg(R4, 0x00000000)  returns 0x00 (0000ms, 0662ms total)
T1C30 000:862 JLINK_WriteReg(R5, 0x00000000)  returns 0x00 (0000ms, 0662ms total)
T1C30 000:862 JLINK_WriteReg(R6, 0x00000000)  returns 0x00 (0000ms, 0662ms total)
T1C30 000:862 JLINK_WriteReg(R7, 0x00000000)  returns 0x00 (0000ms, 0662ms total)
T1C30 000:862 JLINK_WriteReg(R8, 0x00000000)  returns 0x00 (0000ms, 0662ms total)
T1C30 000:862 JLINK_WriteReg(R9, 0x2000017C)  returns 0x00 (0000ms, 0662ms total)
T1C30 000:862 JLINK_WriteReg(R10, 0x00000000)  returns 0x00 (0000ms, 0662ms total)
T1C30 000:862 JLINK_WriteReg(R11, 0x00000000)  returns 0x00 (0000ms, 0662ms total)
T1C30 000:862 JLINK_WriteReg(R12, 0x00000000)  returns 0x00 (0000ms, 0662ms total)
T1C30 000:862 JLINK_WriteReg(R13 (SP), 0x20001000)  returns 0x00 (0000ms, 0662ms total)
T1C30 000:862 JLINK_WriteReg(R14, 0x20000001)  returns 0x00 (0000ms, 0662ms total)
T1C30 000:862 JLINK_WriteReg(R15 (PC), 0x20000054)  returns 0x00 (0000ms, 0662ms total)
T1C30 000:862 JLINK_WriteReg(XPSR, 0x01000000)  returns 0x00 (0000ms, 0662ms total)
T1C30 000:862 JLINK_WriteReg(MSP, 0x20001000)  returns 0x00 (0000ms, 0662ms total)
T1C30 000:862 JLINK_WriteReg(PSP, 0x20001000)  returns 0x00 (0000ms, 0662ms total)
T1C30 000:862 JLINK_WriteReg(CFBP, 0x00000000)  returns 0x00 (0000ms, 0662ms total)
T1C30 000:862 JLINK_SetBPEx(Addr = 0x20000000, Type = 0xFFFFFFF2) -- CPU_ReadMem(2 bytes @ 0x20000000)  returns 0x00000001 (0001ms, 0663ms total)
T1C30 000:863 JLINK_Go() -- CPU_WriteMem(2 bytes @ 0x20000000) -- CPU_WriteMem(4 bytes @ 0xE0002008) -- CPU_WriteMem(4 bytes @ 0xE000200C) -- CPU_WriteMem(4 bytes @ 0xE0002010) -- CPU_WriteMem(4 bytes @ 0xE0002014) -- CPU_WriteMem(4 bytes @ 0xE0002018) -- CPU_WriteMem(4 bytes @ 0xE000201C) -- CPU_WriteMem(4 bytes @ 0xE0001004) (0005ms, 0668ms total)
T1C30 000:868 JLINK_IsHalted() -- CPU_ReadMem(2 bytes @ 0x20000000)  returns TRUE (0003ms, 0671ms total)
T1C30 000:871 JLINK_ReadReg(R15 (PC))  returns 0x20000000 (0000ms, 0668ms total)
T1C30 000:871 JLINK_ClrBPEx(BPHandle = 0x00000001)  returns 0x00 (0000ms, 0668ms total)
T1C30 000:871 JLINK_ReadReg(R0)  returns 0x00000000 (0000ms, 0668ms total)
T1C30 000:871 JLINK_WriteReg(R0, 0x08000000)  returns 0x00 (0000ms, 0668ms total)
T1C30 000:871 JLINK_WriteReg(R1, 0x00004000)  returns 0x00 (0000ms, 0668ms total)
T1C30 000:871 JLINK_WriteReg(R2, 0x000000FF)  returns 0x00 (0000ms, 0668ms total)
T1C30 000:871 JLINK_WriteReg(R3, 0x00000000)  returns 0x00 (0000ms, 0668ms total)
T1C30 000:871 JLINK_WriteReg(R4, 0x00000000)  returns 0x00 (0000ms, 0668ms total)
T1C30 000:871 JLINK_WriteReg(R5, 0x00000000)  returns 0x00 (0000ms, 0668ms total)
T1C30 000:871 JLINK_WriteReg(R6, 0x00000000)  returns 0x00 (0000ms, 0668ms total)
T1C30 000:871 JLINK_WriteReg(R7, 0x00000000)  returns 0x00 (0000ms, 0668ms total)
T1C30 000:871 JLINK_WriteReg(R8, 0x00000000)  returns 0x00 (0000ms, 0668ms total)
T1C30 000:871 JLINK_WriteReg(R9, 0x2000017C)  returns 0x00 (0000ms, 0668ms total)
T1C30 000:871 JLINK_WriteReg(R10, 0x00000000)  returns 0x00 (0001ms, 0669ms total)
T1C30 000:872 JLINK_WriteReg(R11, 0x00000000)  returns 0x00 (0000ms, 0669ms total)
T1C30 000:872 JLINK_WriteReg(R12, 0x00000000)  returns 0x00 (0000ms, 0669ms total)
T1C30 000:872 JLINK_WriteReg(R13 (SP), 0x20001000)  returns 0x00 (0000ms, 0669ms total)
T1C30 000:872 JLINK_WriteReg(R14, 0x20000001)  returns 0x00 (0000ms, 0669ms total)
T1C30 000:872 JLINK_WriteReg(R15 (PC), 0x20000020)  returns 0x00 (0000ms, 0669ms total)
T1C30 000:872 JLINK_WriteReg(XPSR, 0x01000000)  returns 0x00 (0000ms, 0669ms total)
T1C30 000:872 JLINK_WriteReg(MSP, 0x20001000)  returns 0x00 (0000ms, 0669ms total)
T1C30 000:872 JLINK_WriteReg(PSP, 0x20001000)  returns 0x00 (0000ms, 0669ms total)
T1C30 000:872 JLINK_WriteReg(CFBP, 0x00000000)  returns 0x00 (0000ms, 0669ms total)
T1C30 000:872 JLINK_SetBPEx(Addr = 0x20000000, Type = 0xFFFFFFF2)  returns 0x00000002 (0000ms, 0669ms total)
T1C30 000:872 JLINK_Go() (0001ms, 0670ms total)
T1C30 000:873 JLINK_IsHalted() -- CPU_ReadMem(2 bytes @ 0x20000000)  returns TRUE (0003ms, 0673ms total)
T1C30 000:876 JLINK_ReadReg(R15 (PC))  returns 0x20000000 (0000ms, 0670ms total)
T1C30 000:876 JLINK_ClrBPEx(BPHandle = 0x00000002)  returns 0x00 (0000ms, 0670ms total)
T1C30 000:876 JLINK_ReadReg(R0)  returns 0x00000001 (0000ms, 0670ms total)
T1C30 000:876 JLINK_WriteReg(R0, 0x08000000)  returns 0x00 (0000ms, 0670ms total)
T1C30 000:876 JLINK_WriteReg(R1, 0x00004000)  returns 0x00 (0000ms, 0670ms total)
T1C30 000:876 JLINK_WriteReg(R2, 0x000000FF)  returns 0x00 (0000ms, 0670ms total)
T1C30 000:876 JLINK_WriteReg(R3, 0x00000000)  returns 0x00 (0000ms, 0670ms total)
T1C30 000:876 JLINK_WriteReg(R4, 0x00000000)  returns 0x00 (0000ms, 0670ms total)
T1C30 000:876 JLINK_WriteReg(R5, 0x00000000)  returns 0x00 (0000ms, 0670ms total)
T1C30 000:876 JLINK_WriteReg(R6, 0x00000000)  returns 0x00 (0000ms, 0670ms total)
T1C30 000:876 JLINK_WriteReg(R7, 0x00000000)  returns 0x00 (0000ms, 0670ms total)
T1C30 000:876 JLINK_WriteReg(R8, 0x00000000)  returns 0x00 (0000ms, 0670ms total)
T1C30 000:876 JLINK_WriteReg(R9, 0x2000017C)  returns 0x00 (0001ms, 0671ms total)
T1C30 000:877 JLINK_WriteReg(R10, 0x00000000)  returns 0x00 (0000ms, 0671ms total)
T1C30 000:877 JLINK_WriteReg(R11, 0x00000000)  returns 0x00 (0000ms, 0671ms total)
T1C30 000:877 JLINK_WriteReg(R12, 0x00000000)  returns 0x00 (0000ms, 0671ms total)
T1C30 000:877 JLINK_WriteReg(R13 (SP), 0x20001000)  returns 0x00 (0000ms, 0671ms total)
T1C30 000:877 JLINK_WriteReg(R14, 0x20000001)  returns 0x00 (0000ms, 0671ms total)
T1C30 000:877 JLINK_WriteReg(R15 (PC), 0x200000BC)  returns 0x00 (0000ms, 0671ms total)
T1C30 000:877 JLINK_WriteReg(XPSR, 0x01000000)  returns 0x00 (0000ms, 0671ms total)
T1C30 000:877 JLINK_WriteReg(MSP, 0x20001000)  returns 0x00 (0000ms, 0671ms total)
T1C30 000:877 JLINK_WriteReg(PSP, 0x20001000)  returns 0x00 (0000ms, 0671ms total)
T1C30 000:877 JLINK_WriteReg(CFBP, 0x00000000)  returns 0x00 (0000ms, 0671ms total)
T1C30 000:877 JLINK_SetBPEx(Addr = 0x20000000, Type = 0xFFFFFFF2)  returns 0x00000003 (0000ms, 0671ms total)
T1C30 000:877 JLINK_Go() (0001ms, 0672ms total)
T1C30 000:878 JLINK_IsHalted()  returns FALSE (0001ms, 0673ms total)
T1C30 001:054 JLINK_IsHalted()  returns FALSE (0000ms, 0672ms total)
T1C30 001:173 JLINK_IsHalted()  returns FALSE (0000ms, 0672ms total)
T1C30 001:292 JLINK_IsHalted() -- CPU_ReadMem(2 bytes @ 0x20000000)  returns TRUE (0003ms, 0675ms total)
T1C30 001:295 JLINK_ReadReg(R15 (PC))  returns 0x20000000 (0000ms, 0672ms total)
T1C30 001:295 JLINK_ClrBPEx(BPHandle = 0x00000003)  returns 0x00 (0000ms, 0672ms total)
T1C30 001:295 JLINK_ReadReg(R0)  returns 0x00000000 (0000ms, 0672ms total)
T1C30 001:295 JLINK_WriteReg(R0, 0x00000001)  returns 0x00 (0000ms, 0672ms total)
T1C30 001:295 JLINK_WriteReg(R1, 0x00004000)  returns 0x00 (0000ms, 0672ms total)
T1C30 001:295 JLINK_WriteReg(R2, 0x000000FF)  returns 0x00 (0000ms, 0672ms total)
T1C30 001:295 JLINK_WriteReg(R3, 0x00000000)  returns 0x00 (0000ms, 0672ms total)
T1C30 001:295 JLINK_WriteReg(R4, 0x00000000)  returns 0x00 (0000ms, 0672ms total)
T1C30 001:295 JLINK_WriteReg(R5, 0x00000000)  returns 0x00 (0000ms, 0672ms total)
T1C30 001:295 JLINK_WriteReg(R6, 0x00000000)  returns 0x00 (0000ms, 0672ms total)
T1C30 001:295 JLINK_WriteReg(R7, 0x00000000)  returns 0x00 (0000ms, 0672ms total)
T1C30 001:295 JLINK_WriteReg(R8, 0x00000000)  returns 0x00 (0000ms, 0672ms total)
T1C30 001:295 JLINK_WriteReg(R9, 0x2000017C)  returns 0x00 (0000ms, 0672ms total)
T1C30 001:295 JLINK_WriteReg(R10, 0x00000000)  returns 0x00 (0000ms, 0672ms total)
T1C30 001:295 JLINK_WriteReg(R11, 0x00000000)  returns 0x00 (0000ms, 0672ms total)
T1C30 001:295 JLINK_WriteReg(R12, 0x00000000)  returns 0x00 (0000ms, 0672ms total)
T1C30 001:295 JLINK_WriteReg(R13 (SP), 0x20001000)  returns 0x00 (0000ms, 0672ms total)
T1C30 001:295 JLINK_WriteReg(R14, 0x20000001)  returns 0x00 (0000ms, 0672ms total)
T1C30 001:295 JLINK_WriteReg(R15 (PC), 0x20000082)  returns 0x00 (0000ms, 0672ms total)
T1C30 001:295 JLINK_WriteReg(XPSR, 0x01000000)  returns 0x00 (0000ms, 0672ms total)
T1C30 001:295 JLINK_WriteReg(MSP, 0x20001000)  returns 0x00 (0000ms, 0672ms total)
T1C30 001:295 JLINK_WriteReg(PSP, 0x20001000)  returns 0x00 (0000ms, 0672ms total)
T1C30 001:295 JLINK_WriteReg(CFBP, 0x00000000)  returns 0x00 (0001ms, 0673ms total)
T1C30 001:296 JLINK_SetBPEx(Addr = 0x20000000, Type = 0xFFFFFFF2)  returns 0x00000004 (0000ms, 0673ms total)
T1C30 001:296 JLINK_Go() (0001ms, 0674ms total)
T1C30 001:297 JLINK_IsHalted() -- CPU_ReadMem(2 bytes @ 0x20000000)  returns TRUE (0003ms, 0677ms total)
T1C30 001:300 JLINK_ReadReg(R15 (PC))  returns 0x20000000 (0000ms, 0674ms total)
T1C30 001:300 JLINK_ClrBPEx(BPHandle = 0x00000004)  returns 0x00 (0000ms, 0674ms total)
T1C30 001:300 JLINK_ReadReg(R0)  returns 0x00000000 (0000ms, 0674ms total)
T1C30 001:360 JLINK_WriteMem(0x20000000, 0x0180 Bytes, ...) - Data: 00 BE 0A E0 0D 78 2D 06 68 40 08 24 40 00 00 D3 ... -- CPU_WriteMem(384 bytes @ 0x20000000)  returns 0x180 (0003ms, 0677ms total)
T1C30 001:363 JLINK_WriteReg(R0, 0x08000000)  returns 0x00 (0000ms, 0677ms total)
T1C30 001:363 JLINK_WriteReg(R1, 0x00B71B00)  returns 0x00 (0000ms, 0677ms total)
T1C30 001:363 JLINK_WriteReg(R2, 0x00000002)  returns 0x00 (0000ms, 0677ms total)
T1C30 001:363 JLINK_WriteReg(R3, 0x00000000)  returns 0x00 (0000ms, 0677ms total)
T1C30 001:363 JLINK_WriteReg(R4, 0x00000000)  returns 0x00 (0000ms, 0677ms total)
T1C30 001:363 JLINK_WriteReg(R5, 0x00000000)  returns 0x00 (0000ms, 0677ms total)
T1C30 001:363 JLINK_WriteReg(R6, 0x00000000)  returns 0x00 (0000ms, 0677ms total)
T1C30 001:363 JLINK_WriteReg(R7, 0x00000000)  returns 0x00 (0000ms, 0677ms total)
T1C30 001:363 JLINK_WriteReg(R8, 0x00000000)  returns 0x00 (0000ms, 0677ms total)
T1C30 001:363 JLINK_WriteReg(R9, 0x2000017C)  returns 0x00 (0000ms, 0677ms total)
T1C30 001:363 JLINK_WriteReg(R10, 0x00000000)  returns 0x00 (0000ms, 0677ms total)
T1C30 001:363 JLINK_WriteReg(R11, 0x00000000)  returns 0x00 (0001ms, 0678ms total)
T1C30 001:364 JLINK_WriteReg(R12, 0x00000000)  returns 0x00 (0000ms, 0678ms total)
T1C30 001:364 JLINK_WriteReg(R13 (SP), 0x20001000)  returns 0x00 (0000ms, 0678ms total)
T1C30 001:364 JLINK_WriteReg(R14, 0x20000001)  returns 0x00 (0000ms, 0678ms total)
T1C30 001:364 JLINK_WriteReg(R15 (PC), 0x20000054)  returns 0x00 (0000ms, 0678ms total)
T1C30 001:364 JLINK_WriteReg(XPSR, 0x01000000)  returns 0x00 (0000ms, 0678ms total)
T1C30 001:364 JLINK_WriteReg(MSP, 0x20001000)  returns 0x00 (0000ms, 0678ms total)
T1C30 001:364 JLINK_WriteReg(PSP, 0x20001000)  returns 0x00 (0000ms, 0678ms total)
T1C30 001:364 JLINK_WriteReg(CFBP, 0x00000000)  returns 0x00 (0000ms, 0678ms total)
T1C30 001:364 JLINK_SetBPEx(Addr = 0x20000000, Type = 0xFFFFFFF2) -- CPU_ReadMem(2 bytes @ 0x20000000)  returns 0x00000005 (0000ms, 0678ms total)
T1C30 001:364 JLINK_Go() -- CPU_WriteMem(2 bytes @ 0x20000000) (0003ms, 0681ms total)
T1C30 001:367 JLINK_IsHalted() -- CPU_ReadMem(2 bytes @ 0x20000000)  returns TRUE (0003ms, 0684ms total)
T1C30 001:370 JLINK_ReadReg(R15 (PC))  returns 0x20000000 (0000ms, 0681ms total)
T1C30 001:370 JLINK_ClrBPEx(BPHandle = 0x00000005)  returns 0x00 (0000ms, 0681ms total)
T1C30 001:370 JLINK_ReadReg(R0)  returns 0x00000000 (0000ms, 0681ms total)
T1C30 001:371 JLINK_WriteMem(0x20000180, 0x0400 Bytes, ...) - Data: F0 0F 00 20 69 02 00 08 21 15 00 08 61 11 00 08 ... -- CPU_WriteMem(1024 bytes @ 0x20000180)  returns 0x400 (0007ms, 0688ms total)
T1C30 001:378 JLINK_WriteReg(R0, 0x08000000)  returns 0x00 (0000ms, 0688ms total)
T1C30 001:378 JLINK_WriteReg(R1, 0x00000400)  returns 0x00 (0000ms, 0688ms total)
T1C30 001:378 JLINK_WriteReg(R2, 0x20000180)  returns 0x00 (0000ms, 0688ms total)
T1C30 001:378 JLINK_WriteReg(R3, 0x00000000)  returns 0x00 (0000ms, 0688ms total)
T1C30 001:378 JLINK_WriteReg(R4, 0x00000000)  returns 0x00 (0000ms, 0688ms total)
T1C30 001:378 JLINK_WriteReg(R5, 0x00000000)  returns 0x00 (0000ms, 0688ms total)
T1C30 001:378 JLINK_WriteReg(R6, 0x00000000)  returns 0x00 (0000ms, 0688ms total)
T1C30 001:378 JLINK_WriteReg(R7, 0x00000000)  returns 0x00 (0000ms, 0688ms total)
T1C30 001:378 JLINK_WriteReg(R8, 0x00000000)  returns 0x00 (0000ms, 0688ms total)
T1C30 001:378 JLINK_WriteReg(R9, 0x2000017C)  returns 0x00 (0000ms, 0688ms total)
T1C30 001:378 JLINK_WriteReg(R10, 0x00000000)  returns 0x00 (0000ms, 0688ms total)
T1C30 001:378 JLINK_WriteReg(R11, 0x00000000)  returns 0x00 (0000ms, 0688ms total)
T1C30 001:378 JLINK_WriteReg(R12, 0x00000000)  returns 0x00 (0000ms, 0688ms total)
T1C30 001:378 JLINK_WriteReg(R13 (SP), 0x20001000)  returns 0x00 (0000ms, 0688ms total)
T1C30 001:378 JLINK_WriteReg(R14, 0x20000001)  returns 0x00 (0000ms, 0688ms total)
T1C30 001:378 JLINK_WriteReg(R15 (PC), 0x20000108)  returns 0x00 (0000ms, 0688ms total)
T1C30 001:378 JLINK_WriteReg(XPSR, 0x01000000)  returns 0x00 (0000ms, 0688ms total)
T1C30 001:378 JLINK_WriteReg(MSP, 0x20001000)  returns 0x00 (0000ms, 0688ms total)
T1C30 001:378 JLINK_WriteReg(PSP, 0x20001000)  returns 0x00 (0000ms, 0688ms total)
T1C30 001:378 JLINK_WriteReg(CFBP, 0x00000000)  returns 0x00 (0000ms, 0688ms total)
T1C30 001:378 JLINK_SetBPEx(Addr = 0x20000000, Type = 0xFFFFFFF2)  returns 0x00000006 (0000ms, 0688ms total)
T1C30 001:378 JLINK_Go() (0002ms, 0690ms total)
T1C30 001:380 JLINK_IsHalted()  returns FALSE (0001ms, 0691ms total)
T1C30 001:501 JLINK_IsHalted() -- CPU_ReadMem(2 bytes @ 0x20000000)  returns TRUE (0003ms, 0693ms total)
T1C30 001:504 JLINK_ReadReg(R15 (PC))  returns 0x20000000 (0000ms, 0690ms total)
T1C30 001:504 JLINK_ClrBPEx(BPHandle = 0x00000006)  returns 0x00 (0000ms, 0690ms total)
T1C30 001:504 JLINK_ReadReg(R0)  returns 0x00000000 (0000ms, 0690ms total)
T1C30 001:504 JLINK_WriteMem(0x20000180, 0x0400 Bytes, ...) - Data: 1C 49 88 6B 02 F0 57 FD 12 4A C2 E9 02 01 10 46 ... -- CPU_WriteMem(1024 bytes @ 0x20000180)  returns 0x400 (0007ms, 0697ms total)
T1C30 001:511 JLINK_WriteReg(R0, 0x08000400)  returns 0x00 (0000ms, 0697ms total)
T1C30 001:511 JLINK_WriteReg(R1, 0x00000400)  returns 0x00 (0000ms, 0697ms total)
T1C30 001:511 JLINK_WriteReg(R2, 0x20000180)  returns 0x00 (0000ms, 0697ms total)
T1C30 001:511 JLINK_WriteReg(R3, 0x00000000)  returns 0x00 (0000ms, 0697ms total)
T1C30 001:511 JLINK_WriteReg(R4, 0x00000000)  returns 0x00 (0000ms, 0697ms total)
T1C30 001:511 JLINK_WriteReg(R5, 0x00000000)  returns 0x00 (0000ms, 0697ms total)
T1C30 001:511 JLINK_WriteReg(R6, 0x00000000)  returns 0x00 (0000ms, 0697ms total)
T1C30 001:511 JLINK_WriteReg(R7, 0x00000000)  returns 0x00 (0000ms, 0697ms total)
T1C30 001:511 JLINK_WriteReg(R8, 0x00000000)  returns 0x00 (0000ms, 0697ms total)
T1C30 001:511 JLINK_WriteReg(R9, 0x2000017C)  returns 0x00 (0000ms, 0697ms total)
T1C30 001:511 JLINK_WriteReg(R10, 0x00000000)  returns 0x00 (0000ms, 0697ms total)
T1C30 001:511 JLINK_WriteReg(R11, 0x00000000)  returns 0x00 (0000ms, 0697ms total)
T1C30 001:511 JLINK_WriteReg(R12, 0x00000000)  returns 0x00 (0000ms, 0697ms total)
T1C30 001:511 JLINK_WriteReg(R13 (SP), 0x20001000)  returns 0x00 (0000ms, 0697ms total)
T1C30 001:511 JLINK_WriteReg(R14, 0x20000001)  returns 0x00 (0000ms, 0697ms total)
T1C30 001:511 JLINK_WriteReg(R15 (PC), 0x20000108)  returns 0x00 (0000ms, 0697ms total)
T1C30 001:511 JLINK_WriteReg(XPSR, 0x01000000)  returns 0x00 (0000ms, 0697ms total)
T1C30 001:511 JLINK_WriteReg(MSP, 0x20001000)  returns 0x00 (0000ms, 0697ms total)
T1C30 001:511 JLINK_WriteReg(PSP, 0x20001000)  returns 0x00 (0000ms, 0697ms total)
T1C30 001:511 JLINK_WriteReg(CFBP, 0x00000000)  returns 0x00 (0000ms, 0697ms total)
T1C30 001:511 JLINK_SetBPEx(Addr = 0x20000000, Type = 0xFFFFFFF2)  returns 0x00000007 (0000ms, 0697ms total)
T1C30 001:511 JLINK_Go() (0002ms, 0699ms total)
T1C30 001:513 JLINK_IsHalted()  returns FALSE (0000ms, 0699ms total)
T1C30 001:638 JLINK_IsHalted() -- CPU_ReadMem(2 bytes @ 0x20000000)  returns TRUE (0003ms, 0702ms total)
T1C30 001:641 JLINK_ReadReg(R15 (PC))  returns 0x20000000 (0000ms, 0699ms total)
T1C30 001:641 JLINK_ClrBPEx(BPHandle = 0x00000007)  returns 0x00 (0000ms, 0699ms total)
T1C30 001:641 JLINK_ReadReg(R0)  returns 0x00000000 (0000ms, 0699ms total)
T1C30 001:641 JLINK_WriteMem(0x20000180, 0x0400 Bytes, ...) - Data: 99 42 02 D1 00 23 83 61 11 E0 C1 F3 13 02 01 F0 ... -- CPU_WriteMem(1024 bytes @ 0x20000180)  returns 0x400 (0007ms, 0706ms total)
T1C30 001:648 JLINK_WriteReg(R0, 0x08000800)  returns 0x00 (0000ms, 0706ms total)
T1C30 001:648 JLINK_WriteReg(R1, 0x00000400)  returns 0x00 (0000ms, 0706ms total)
T1C30 001:648 JLINK_WriteReg(R2, 0x20000180)  returns 0x00 (0000ms, 0706ms total)
T1C30 001:648 JLINK_WriteReg(R3, 0x00000000)  returns 0x00 (0000ms, 0706ms total)
T1C30 001:648 JLINK_WriteReg(R4, 0x00000000)  returns 0x00 (0000ms, 0706ms total)
T1C30 001:648 JLINK_WriteReg(R5, 0x00000000)  returns 0x00 (0000ms, 0706ms total)
T1C30 001:648 JLINK_WriteReg(R6, 0x00000000)  returns 0x00 (0000ms, 0706ms total)
T1C30 001:648 JLINK_WriteReg(R7, 0x00000000)  returns 0x00 (0000ms, 0706ms total)
T1C30 001:648 JLINK_WriteReg(R8, 0x00000000)  returns 0x00 (0000ms, 0706ms total)
T1C30 001:648 JLINK_WriteReg(R9, 0x2000017C)  returns 0x00 (0000ms, 0706ms total)
T1C30 001:648 JLINK_WriteReg(R10, 0x00000000)  returns 0x00 (0000ms, 0706ms total)
T1C30 001:648 JLINK_WriteReg(R11, 0x00000000)  returns 0x00 (0000ms, 0706ms total)
T1C30 001:648 JLINK_WriteReg(R12, 0x00000000)  returns 0x00 (0000ms, 0706ms total)
T1C30 001:648 JLINK_WriteReg(R13 (SP), 0x20001000)  returns 0x00 (0000ms, 0706ms total)
T1C30 001:648 JLINK_WriteReg(R14, 0x20000001)  returns 0x00 (0000ms, 0706ms total)
T1C30 001:648 JLINK_WriteReg(R15 (PC), 0x20000108)  returns 0x00 (0000ms, 0706ms total)
T1C30 001:648 JLINK_WriteReg(XPSR, 0x01000000)  returns 0x00 (0001ms, 0707ms total)
T1C30 001:649 JLINK_WriteReg(MSP, 0x20001000)  returns 0x00 (0000ms, 0707ms total)
T1C30 001:649 JLINK_WriteReg(PSP, 0x20001000)  returns 0x00 (0000ms, 0707ms total)
T1C30 001:649 JLINK_WriteReg(CFBP, 0x00000000)  returns 0x00 (0000ms, 0707ms total)
T1C30 001:649 JLINK_SetBPEx(Addr = 0x20000000, Type = 0xFFFFFFF2)  returns 0x00000008 (0000ms, 0707ms total)
T1C30 001:649 JLINK_Go() (0001ms, 0708ms total)
T1C30 001:651 JLINK_IsHalted()  returns FALSE (0000ms, 0709ms total)
T1C30 001:771 JLINK_IsHalted() -- CPU_ReadMem(2 bytes @ 0x20000000)  returns TRUE (0003ms, 0712ms total)
T1C30 001:774 JLINK_ReadReg(R15 (PC))  returns 0x20000000 (0000ms, 0709ms total)
T1C30 001:774 JLINK_ClrBPEx(BPHandle = 0x00000008)  returns 0x00 (0000ms, 0709ms total)
T1C30 001:774 JLINK_ReadReg(R0)  returns 0x00000000 (0000ms, 0709ms total)
T1C30 001:774 JLINK_WriteMem(0x20000180, 0x0400 Bytes, ...) - Data: 01 2C 04 D1 14 68 44 F0 04 04 14 60 03 E0 14 68 ... -- CPU_WriteMem(1024 bytes @ 0x20000180)  returns 0x400 (0007ms, 0716ms total)
T1C30 001:781 JLINK_WriteReg(R0, 0x08000C00)  returns 0x00 (0000ms, 0716ms total)
T1C30 001:781 JLINK_WriteReg(R1, 0x00000400)  returns 0x00 (0000ms, 0716ms total)
T1C30 001:781 JLINK_WriteReg(R2, 0x20000180)  returns 0x00 (0000ms, 0716ms total)
T1C30 001:781 JLINK_WriteReg(R3, 0x00000000)  returns 0x00 (0000ms, 0716ms total)
T1C30 001:781 JLINK_WriteReg(R4, 0x00000000)  returns 0x00 (0000ms, 0716ms total)
T1C30 001:781 JLINK_WriteReg(R5, 0x00000000)  returns 0x00 (0000ms, 0716ms total)
T1C30 001:781 JLINK_WriteReg(R6, 0x00000000)  returns 0x00 (0000ms, 0716ms total)
T1C30 001:781 JLINK_WriteReg(R7, 0x00000000)  returns 0x00 (0000ms, 0716ms total)
T1C30 001:781 JLINK_WriteReg(R8, 0x00000000)  returns 0x00 (0000ms, 0716ms total)
T1C30 001:781 JLINK_WriteReg(R9, 0x2000017C)  returns 0x00 (0000ms, 0716ms total)
T1C30 001:781 JLINK_WriteReg(R10, 0x00000000)  returns 0x00 (0000ms, 0716ms total)
T1C30 001:781 JLINK_WriteReg(R11, 0x00000000)  returns 0x00 (0000ms, 0716ms total)
T1C30 001:781 JLINK_WriteReg(R12, 0x00000000)  returns 0x00 (0000ms, 0716ms total)
T1C30 001:781 JLINK_WriteReg(R13 (SP), 0x20001000)  returns 0x00 (0000ms, 0716ms total)
T1C30 001:781 JLINK_WriteReg(R14, 0x20000001)  returns 0x00 (0000ms, 0716ms total)
T1C30 001:781 JLINK_WriteReg(R15 (PC), 0x20000108)  returns 0x00 (0000ms, 0716ms total)
T1C30 001:781 JLINK_WriteReg(XPSR, 0x01000000)  returns 0x00 (0000ms, 0716ms total)
T1C30 001:781 JLINK_WriteReg(MSP, 0x20001000)  returns 0x00 (0000ms, 0716ms total)
T1C30 001:781 JLINK_WriteReg(PSP, 0x20001000)  returns 0x00 (0000ms, 0716ms total)
T1C30 001:781 JLINK_WriteReg(CFBP, 0x00000000)  returns 0x00 (0000ms, 0716ms total)
T1C30 001:781 JLINK_SetBPEx(Addr = 0x20000000, Type = 0xFFFFFFF2)  returns 0x00000009 (0000ms, 0716ms total)
T1C30 001:781 JLINK_Go() (0002ms, 0718ms total)
T1C30 001:783 JLINK_IsHalted()  returns FALSE (0001ms, 0719ms total)
T1C30 001:904 JLINK_IsHalted() -- CPU_ReadMem(2 bytes @ 0x20000000)  returns TRUE (0003ms, 0721ms total)
T1C30 001:907 JLINK_ReadReg(R15 (PC))  returns 0x20000000 (0000ms, 0718ms total)
T1C30 001:907 JLINK_ClrBPEx(BPHandle = 0x00000009)  returns 0x00 (0000ms, 0718ms total)
T1C30 001:907 JLINK_ReadReg(R0)  returns 0x00000000 (0000ms, 0718ms total)
T1C30 001:907 JLINK_WriteMem(0x20000180, 0x0400 Bytes, ...) - Data: 10 49 08 80 08 E0 0F 48 B0 F9 00 00 0C 49 48 61 ... -- CPU_WriteMem(1024 bytes @ 0x20000180)  returns 0x400 (0007ms, 0725ms total)
T1C30 001:914 JLINK_WriteReg(R0, 0x08001000)  returns 0x00 (0000ms, 0725ms total)
T1C30 001:914 JLINK_WriteReg(R1, 0x00000400)  returns 0x00 (0000ms, 0725ms total)
T1C30 001:914 JLINK_WriteReg(R2, 0x20000180)  returns 0x00 (0000ms, 0725ms total)
T1C30 001:914 JLINK_WriteReg(R3, 0x00000000)  returns 0x00 (0000ms, 0725ms total)
T1C30 001:914 JLINK_WriteReg(R4, 0x00000000)  returns 0x00 (0000ms, 0725ms total)
T1C30 001:914 JLINK_WriteReg(R5, 0x00000000)  returns 0x00 (0000ms, 0725ms total)
T1C30 001:914 JLINK_WriteReg(R6, 0x00000000)  returns 0x00 (0000ms, 0725ms total)
T1C30 001:914 JLINK_WriteReg(R7, 0x00000000)  returns 0x00 (0000ms, 0725ms total)
T1C30 001:914 JLINK_WriteReg(R8, 0x00000000)  returns 0x00 (0000ms, 0725ms total)
T1C30 001:914 JLINK_WriteReg(R9, 0x2000017C)  returns 0x00 (0000ms, 0725ms total)
T1C30 001:914 JLINK_WriteReg(R10, 0x00000000)  returns 0x00 (0000ms, 0725ms total)
T1C30 001:914 JLINK_WriteReg(R11, 0x00000000)  returns 0x00 (0000ms, 0725ms total)
T1C30 001:914 JLINK_WriteReg(R12, 0x00000000)  returns 0x00 (0000ms, 0725ms total)
T1C30 001:914 JLINK_WriteReg(R13 (SP), 0x20001000)  returns 0x00 (0000ms, 0725ms total)
T1C30 001:914 JLINK_WriteReg(R14, 0x20000001)  returns 0x00 (0000ms, 0725ms total)
T1C30 001:914 JLINK_WriteReg(R15 (PC), 0x20000108)  returns 0x00 (0000ms, 0725ms total)
T1C30 001:914 JLINK_WriteReg(XPSR, 0x01000000)  returns 0x00 (0000ms, 0725ms total)
T1C30 001:914 JLINK_WriteReg(MSP, 0x20001000)  returns 0x00 (0000ms, 0725ms total)
T1C30 001:914 JLINK_WriteReg(PSP, 0x20001000)  returns 0x00 (0000ms, 0725ms total)
T1C30 001:914 JLINK_WriteReg(CFBP, 0x00000000)  returns 0x00 (0000ms, 0725ms total)
T1C30 001:914 JLINK_SetBPEx(Addr = 0x20000000, Type = 0xFFFFFFF2)  returns 0x0000000A (0000ms, 0725ms total)
T1C30 001:914 JLINK_Go() (0002ms, 0727ms total)
T1C30 001:916 JLINK_IsHalted()  returns FALSE (0000ms, 0727ms total)
T1C30 002:045 JLINK_IsHalted() -- CPU_ReadMem(2 bytes @ 0x20000000)  returns TRUE (0003ms, 0730ms total)
T1C30 002:048 JLINK_ReadReg(R15 (PC))  returns 0x20000000 (0000ms, 0727ms total)
T1C30 002:048 JLINK_ClrBPEx(BPHandle = 0x0000000A)  returns 0x00 (0000ms, 0727ms total)
T1C30 002:048 JLINK_ReadReg(R0)  returns 0x00000000 (0000ms, 0727ms total)
T1C30 002:048 JLINK_WriteMem(0x20000180, 0x0400 Bytes, ...) - Data: 97 FB F0 F0 A0 63 BD EC 08 8B BD E8 F0 81 00 00 ... -- CPU_WriteMem(1024 bytes @ 0x20000180)  returns 0x400 (0007ms, 0734ms total)
T1C30 002:055 JLINK_WriteReg(R0, 0x08001400)  returns 0x00 (0001ms, 0735ms total)
T1C30 002:056 JLINK_WriteReg(R1, 0x00000400)  returns 0x00 (0000ms, 0735ms total)
T1C30 002:056 JLINK_WriteReg(R2, 0x20000180)  returns 0x00 (0000ms, 0735ms total)
T1C30 002:056 JLINK_WriteReg(R3, 0x00000000)  returns 0x00 (0000ms, 0735ms total)
T1C30 002:056 JLINK_WriteReg(R4, 0x00000000)  returns 0x00 (0000ms, 0735ms total)
T1C30 002:056 JLINK_WriteReg(R5, 0x00000000)  returns 0x00 (0000ms, 0735ms total)
T1C30 002:056 JLINK_WriteReg(R6, 0x00000000)  returns 0x00 (0000ms, 0735ms total)
T1C30 002:056 JLINK_WriteReg(R7, 0x00000000)  returns 0x00 (0000ms, 0735ms total)
T1C30 002:056 JLINK_WriteReg(R8, 0x00000000)  returns 0x00 (0000ms, 0735ms total)
T1C30 002:056 JLINK_WriteReg(R9, 0x2000017C)  returns 0x00 (0000ms, 0735ms total)
T1C30 002:056 JLINK_WriteReg(R10, 0x00000000)  returns 0x00 (0000ms, 0735ms total)
T1C30 002:056 JLINK_WriteReg(R11, 0x00000000)  returns 0x00 (0000ms, 0735ms total)
T1C30 002:056 JLINK_WriteReg(R12, 0x00000000)  returns 0x00 (0000ms, 0735ms total)
T1C30 002:056 JLINK_WriteReg(R13 (SP), 0x20001000)  returns 0x00 (0000ms, 0735ms total)
T1C30 002:056 JLINK_WriteReg(R14, 0x20000001)  returns 0x00 (0000ms, 0735ms total)
T1C30 002:056 JLINK_WriteReg(R15 (PC), 0x20000108)  returns 0x00 (0000ms, 0735ms total)
T1C30 002:056 JLINK_WriteReg(XPSR, 0x01000000)  returns 0x00 (0000ms, 0735ms total)
T1C30 002:056 JLINK_WriteReg(MSP, 0x20001000)  returns 0x00 (0000ms, 0735ms total)
T1C30 002:056 JLINK_WriteReg(PSP, 0x20001000)  returns 0x00 (0000ms, 0735ms total)
T1C30 002:056 JLINK_WriteReg(CFBP, 0x00000000)  returns 0x00 (0000ms, 0735ms total)
T1C30 002:056 JLINK_SetBPEx(Addr = 0x20000000, Type = 0xFFFFFFF2)  returns 0x0000000B (0000ms, 0735ms total)
T1C30 002:056 JLINK_Go() (0002ms, 0737ms total)
T1C30 002:058 JLINK_IsHalted()  returns FALSE (0000ms, 0737ms total)
T1C30 002:176 JLINK_IsHalted() -- CPU_ReadMem(2 bytes @ 0x20000000)  returns TRUE (0003ms, 0740ms total)
T1C30 002:179 JLINK_ReadReg(R15 (PC))  returns 0x20000000 (0000ms, 0737ms total)
T1C30 002:179 JLINK_ClrBPEx(BPHandle = 0x0000000B)  returns 0x00 (0000ms, 0737ms total)
T1C30 002:179 JLINK_ReadReg(R0)  returns 0x00000000 (0000ms, 0737ms total)
T1C30 002:179 JLINK_WriteMem(0x20000180, 0x0400 Bytes, ...) - Data: 53 EC 10 2B 51 EC 11 0B 01 F0 DC FC 41 EC 18 0B ... -- CPU_WriteMem(1024 bytes @ 0x20000180)  returns 0x400 (0007ms, 0744ms total)
T1C30 002:186 JLINK_WriteReg(R0, 0x08001800)  returns 0x00 (0000ms, 0744ms total)
T1C30 002:186 JLINK_WriteReg(R1, 0x00000400)  returns 0x00 (0000ms, 0744ms total)
T1C30 002:186 JLINK_WriteReg(R2, 0x20000180)  returns 0x00 (0000ms, 0744ms total)
T1C30 002:186 JLINK_WriteReg(R3, 0x00000000)  returns 0x00 (0000ms, 0744ms total)
T1C30 002:186 JLINK_WriteReg(R4, 0x00000000)  returns 0x00 (0000ms, 0744ms total)
T1C30 002:186 JLINK_WriteReg(R5, 0x00000000)  returns 0x00 (0000ms, 0744ms total)
T1C30 002:186 JLINK_WriteReg(R6, 0x00000000)  returns 0x00 (0000ms, 0744ms total)
T1C30 002:186 JLINK_WriteReg(R7, 0x00000000)  returns 0x00 (0000ms, 0744ms total)
T1C30 002:186 JLINK_WriteReg(R8, 0x00000000)  returns 0x00 (0000ms, 0744ms total)
T1C30 002:186 JLINK_WriteReg(R9, 0x2000017C)  returns 0x00 (0000ms, 0744ms total)
T1C30 002:186 JLINK_WriteReg(R10, 0x00000000)  returns 0x00 (0000ms, 0744ms total)
T1C30 002:186 JLINK_WriteReg(R11, 0x00000000)  returns 0x00 (0000ms, 0744ms total)
T1C30 002:186 JLINK_WriteReg(R12, 0x00000000)  returns 0x00 (0000ms, 0744ms total)
T1C30 002:186 JLINK_WriteReg(R13 (SP), 0x20001000)  returns 0x00 (0000ms, 0744ms total)
T1C30 002:186 JLINK_WriteReg(R14, 0x20000001)  returns 0x00 (0000ms, 0744ms total)
T1C30 002:186 JLINK_WriteReg(R15 (PC), 0x20000108)  returns 0x00 (0000ms, 0744ms total)
T1C30 002:186 JLINK_WriteReg(XPSR, 0x01000000)  returns 0x00 (0000ms, 0744ms total)
T1C30 002:187 JLINK_WriteReg(MSP, 0x20001000)  returns 0x00 (0000ms, 0744ms total)
T1C30 002:187 JLINK_WriteReg(PSP, 0x20001000)  returns 0x00 (0000ms, 0744ms total)
T1C30 002:187 JLINK_WriteReg(CFBP, 0x00000000)  returns 0x00 (0000ms, 0744ms total)
T1C30 002:187 JLINK_SetBPEx(Addr = 0x20000000, Type = 0xFFFFFFF2)  returns 0x0000000C (0000ms, 0744ms total)
T1C30 002:187 JLINK_Go() (0001ms, 0745ms total)
T1C30 002:188 JLINK_IsHalted()  returns FALSE (0001ms, 0746ms total)
T1C30 002:310 JLINK_IsHalted() -- CPU_ReadMem(2 bytes @ 0x20000000)  returns TRUE (0003ms, 0748ms total)
T1C30 002:313 JLINK_ReadReg(R15 (PC))  returns 0x20000000 (0000ms, 0745ms total)
T1C30 002:313 JLINK_ClrBPEx(BPHandle = 0x0000000C)  returns 0x00 (0000ms, 0745ms total)
T1C30 002:313 JLINK_ReadReg(R0)  returns 0x00000000 (0000ms, 0745ms total)
T1C30 002:313 JLINK_WriteMem(0x20000180, 0x0400 Bytes, ...) - Data: 0E 00 4F F4 80 70 AD F8 10 00 00 20 AD F8 12 00 ... -- CPU_WriteMem(1024 bytes @ 0x20000180)  returns 0x400 (0007ms, 0752ms total)
T1C30 002:320 JLINK_WriteReg(R0, 0x08001C00)  returns 0x00 (0000ms, 0752ms total)
T1C30 002:320 JLINK_WriteReg(R1, 0x00000400)  returns 0x00 (0000ms, 0752ms total)
T1C30 002:320 JLINK_WriteReg(R2, 0x20000180)  returns 0x00 (0000ms, 0752ms total)
T1C30 002:320 JLINK_WriteReg(R3, 0x00000000)  returns 0x00 (0000ms, 0752ms total)
T1C30 002:320 JLINK_WriteReg(R4, 0x00000000)  returns 0x00 (0000ms, 0752ms total)
T1C30 002:320 JLINK_WriteReg(R5, 0x00000000)  returns 0x00 (0000ms, 0752ms total)
T1C30 002:320 JLINK_WriteReg(R6, 0x00000000)  returns 0x00 (0000ms, 0752ms total)
T1C30 002:320 JLINK_WriteReg(R7, 0x00000000)  returns 0x00 (0000ms, 0752ms total)
T1C30 002:320 JLINK_WriteReg(R8, 0x00000000)  returns 0x00 (0000ms, 0752ms total)
T1C30 002:320 JLINK_WriteReg(R9, 0x2000017C)  returns 0x00 (0000ms, 0752ms total)
T1C30 002:320 JLINK_WriteReg(R10, 0x00000000)  returns 0x00 (0000ms, 0752ms total)
T1C30 002:320 JLINK_WriteReg(R11, 0x00000000)  returns 0x00 (0000ms, 0752ms total)
T1C30 002:320 JLINK_WriteReg(R12, 0x00000000)  returns 0x00 (0000ms, 0752ms total)
T1C30 002:320 JLINK_WriteReg(R13 (SP), 0x20001000)  returns 0x00 (0000ms, 0752ms total)
T1C30 002:320 JLINK_WriteReg(R14, 0x20000001)  returns 0x00 (0000ms, 0752ms total)
T1C30 002:320 JLINK_WriteReg(R15 (PC), 0x20000108)  returns 0x00 (0000ms, 0752ms total)
T1C30 002:320 JLINK_WriteReg(XPSR, 0x01000000)  returns 0x00 (0000ms, 0752ms total)
T1C30 002:320 JLINK_WriteReg(MSP, 0x20001000)  returns 0x00 (0000ms, 0752ms total)
T1C30 002:320 JLINK_WriteReg(PSP, 0x20001000)  returns 0x00 (0000ms, 0752ms total)
T1C30 002:320 JLINK_WriteReg(CFBP, 0x00000000)  returns 0x00 (0000ms, 0752ms total)
T1C30 002:320 JLINK_SetBPEx(Addr = 0x20000000, Type = 0xFFFFFFF2)  returns 0x0000000D (0000ms, 0752ms total)
T1C30 002:320 JLINK_Go() (0002ms, 0754ms total)
T1C30 002:322 JLINK_IsHalted()  returns FALSE (0001ms, 0755ms total)
T1C30 002:445 JLINK_IsHalted() -- CPU_ReadMem(2 bytes @ 0x20000000)  returns TRUE (0003ms, 0757ms total)
T1C30 002:448 JLINK_ReadReg(R15 (PC))  returns 0x20000000 (0000ms, 0754ms total)
T1C30 002:448 JLINK_ClrBPEx(BPHandle = 0x0000000D)  returns 0x00 (0000ms, 0754ms total)
T1C30 002:448 JLINK_ReadReg(R0)  returns 0x00000000 (0000ms, 0754ms total)
T1C30 002:449 JLINK_WriteMem(0x20000180, 0x0400 Bytes, ...) - Data: 05 E0 40 F6 34 01 04 48 00 F0 11 FC 00 BF 00 BF ... -- CPU_WriteMem(1024 bytes @ 0x20000180)  returns 0x400 (0006ms, 0760ms total)
T1C30 002:455 JLINK_WriteReg(R0, 0x08002000)  returns 0x00 (0000ms, 0760ms total)
T1C30 002:455 JLINK_WriteReg(R1, 0x00000400)  returns 0x00 (0000ms, 0760ms total)
T1C30 002:455 JLINK_WriteReg(R2, 0x20000180)  returns 0x00 (0000ms, 0760ms total)
T1C30 002:455 JLINK_WriteReg(R3, 0x00000000)  returns 0x00 (0000ms, 0760ms total)
T1C30 002:455 JLINK_WriteReg(R4, 0x00000000)  returns 0x00 (0000ms, 0760ms total)
T1C30 002:455 JLINK_WriteReg(R5, 0x00000000)  returns 0x00 (0000ms, 0760ms total)
T1C30 002:455 JLINK_WriteReg(R6, 0x00000000)  returns 0x00 (0000ms, 0760ms total)
T1C30 002:455 JLINK_WriteReg(R7, 0x00000000)  returns 0x00 (0000ms, 0760ms total)
T1C30 002:455 JLINK_WriteReg(R8, 0x00000000)  returns 0x00 (0000ms, 0760ms total)
T1C30 002:455 JLINK_WriteReg(R9, 0x2000017C)  returns 0x00 (0000ms, 0760ms total)
T1C30 002:455 JLINK_WriteReg(R10, 0x00000000)  returns 0x00 (0001ms, 0761ms total)
T1C30 002:456 JLINK_WriteReg(R11, 0x00000000)  returns 0x00 (0000ms, 0761ms total)
T1C30 002:456 JLINK_WriteReg(R12, 0x00000000)  returns 0x00 (0000ms, 0761ms total)
T1C30 002:456 JLINK_WriteReg(R13 (SP), 0x20001000)  returns 0x00 (0000ms, 0761ms total)
T1C30 002:456 JLINK_WriteReg(R14, 0x20000001)  returns 0x00 (0000ms, 0761ms total)
T1C30 002:456 JLINK_WriteReg(R15 (PC), 0x20000108)  returns 0x00 (0000ms, 0761ms total)
T1C30 002:456 JLINK_WriteReg(XPSR, 0x01000000)  returns 0x00 (0000ms, 0761ms total)
T1C30 002:456 JLINK_WriteReg(MSP, 0x20001000)  returns 0x00 (0000ms, 0761ms total)
T1C30 002:456 JLINK_WriteReg(PSP, 0x20001000)  returns 0x00 (0000ms, 0761ms total)
T1C30 002:456 JLINK_WriteReg(CFBP, 0x00000000)  returns 0x00 (0000ms, 0761ms total)
T1C30 002:456 JLINK_SetBPEx(Addr = 0x20000000, Type = 0xFFFFFFF2)  returns 0x0000000E (0000ms, 0761ms total)
T1C30 002:456 JLINK_Go() (0001ms, 0762ms total)
T1C30 002:457 JLINK_IsHalted()  returns FALSE (0001ms, 0763ms total)
T1C30 002:584 JLINK_IsHalted() -- CPU_ReadMem(2 bytes @ 0x20000000)  returns TRUE (0003ms, 0765ms total)
T1C30 002:587 JLINK_ReadReg(R15 (PC))  returns 0x20000000 (0000ms, 0762ms total)
T1C30 002:587 JLINK_ClrBPEx(BPHandle = 0x0000000E)  returns 0x00 (0000ms, 0762ms total)
T1C30 002:587 JLINK_ReadReg(R0)  returns 0x00000000 (0000ms, 0762ms total)
T1C30 002:587 JLINK_WriteMem(0x20000180, 0x0400 Bytes, ...) - Data: B8 30 01 90 69 46 09 48 00 F0 14 FA 36 20 8D F8 ... -- CPU_WriteMem(1024 bytes @ 0x20000180)  returns 0x400 (0007ms, 0769ms total)
T1C30 002:594 JLINK_WriteReg(R0, 0x08002400)  returns 0x00 (0000ms, 0769ms total)
T1C30 002:594 JLINK_WriteReg(R1, 0x00000400)  returns 0x00 (0000ms, 0769ms total)
T1C30 002:594 JLINK_WriteReg(R2, 0x20000180)  returns 0x00 (0000ms, 0769ms total)
T1C30 002:594 JLINK_WriteReg(R3, 0x00000000)  returns 0x00 (0000ms, 0769ms total)
T1C30 002:594 JLINK_WriteReg(R4, 0x00000000)  returns 0x00 (0000ms, 0769ms total)
T1C30 002:594 JLINK_WriteReg(R5, 0x00000000)  returns 0x00 (0000ms, 0769ms total)
T1C30 002:594 JLINK_WriteReg(R6, 0x00000000)  returns 0x00 (0000ms, 0769ms total)
T1C30 002:594 JLINK_WriteReg(R7, 0x00000000)  returns 0x00 (0000ms, 0769ms total)
T1C30 002:594 JLINK_WriteReg(R8, 0x00000000)  returns 0x00 (0000ms, 0769ms total)
T1C30 002:594 JLINK_WriteReg(R9, 0x2000017C)  returns 0x00 (0000ms, 0769ms total)
T1C30 002:594 JLINK_WriteReg(R10, 0x00000000)  returns 0x00 (0000ms, 0769ms total)
T1C30 002:594 JLINK_WriteReg(R11, 0x00000000)  returns 0x00 (0000ms, 0769ms total)
T1C30 002:594 JLINK_WriteReg(R12, 0x00000000)  returns 0x00 (0000ms, 0769ms total)
T1C30 002:594 JLINK_WriteReg(R13 (SP), 0x20001000)  returns 0x00 (0000ms, 0769ms total)
T1C30 002:594 JLINK_WriteReg(R14, 0x20000001)  returns 0x00 (0000ms, 0769ms total)
T1C30 002:594 JLINK_WriteReg(R15 (PC), 0x20000108)  returns 0x00 (0000ms, 0769ms total)
T1C30 002:594 JLINK_WriteReg(XPSR, 0x01000000)  returns 0x00 (0000ms, 0769ms total)
T1C30 002:594 JLINK_WriteReg(MSP, 0x20001000)  returns 0x00 (0000ms, 0769ms total)
T1C30 002:594 JLINK_WriteReg(PSP, 0x20001000)  returns 0x00 (0000ms, 0769ms total)
T1C30 002:594 JLINK_WriteReg(CFBP, 0x00000000)  returns 0x00 (0000ms, 0769ms total)
T1C30 002:594 JLINK_SetBPEx(Addr = 0x20000000, Type = 0xFFFFFFF2)  returns 0x0000000F (0001ms, 0770ms total)
T1C30 002:595 JLINK_Go() (0001ms, 0771ms total)
T1C30 002:596 JLINK_IsHalted()  returns FALSE (0001ms, 0772ms total)
T1C30 002:714 JLINK_IsHalted() -- CPU_ReadMem(2 bytes @ 0x20000000)  returns TRUE (0003ms, 0774ms total)
T1C30 002:717 JLINK_ReadReg(R15 (PC))  returns 0x20000000 (0000ms, 0771ms total)
T1C30 002:717 JLINK_ClrBPEx(BPHandle = 0x0000000F)  returns 0x00 (0000ms, 0771ms total)
T1C30 002:717 JLINK_ReadReg(R0)  returns 0x00000000 (0000ms, 0771ms total)
T1C30 002:718 JLINK_WriteMem(0x20000180, 0x0400 Bytes, ...) - Data: 03 84 70 BD 00 00 01 40 00 04 01 40 0A 46 00 21 ... -- CPU_WriteMem(1024 bytes @ 0x20000180)  returns 0x400 (0007ms, 0778ms total)
T1C30 002:725 JLINK_WriteReg(R0, 0x08002800)  returns 0x00 (0000ms, 0778ms total)
T1C30 002:725 JLINK_WriteReg(R1, 0x00000400)  returns 0x00 (0000ms, 0778ms total)
T1C30 002:725 JLINK_WriteReg(R2, 0x20000180)  returns 0x00 (0000ms, 0778ms total)
T1C30 002:725 JLINK_WriteReg(R3, 0x00000000)  returns 0x00 (0000ms, 0778ms total)
T1C30 002:725 JLINK_WriteReg(R4, 0x00000000)  returns 0x00 (0000ms, 0778ms total)
T1C30 002:725 JLINK_WriteReg(R5, 0x00000000)  returns 0x00 (0000ms, 0778ms total)
T1C30 002:725 JLINK_WriteReg(R6, 0x00000000)  returns 0x00 (0000ms, 0778ms total)
T1C30 002:725 JLINK_WriteReg(R7, 0x00000000)  returns 0x00 (0000ms, 0778ms total)
T1C30 002:725 JLINK_WriteReg(R8, 0x00000000)  returns 0x00 (0000ms, 0778ms total)
T1C30 002:725 JLINK_WriteReg(R9, 0x2000017C)  returns 0x00 (0000ms, 0778ms total)
T1C30 002:725 JLINK_WriteReg(R10, 0x00000000)  returns 0x00 (0000ms, 0778ms total)
T1C30 002:725 JLINK_WriteReg(R11, 0x00000000)  returns 0x00 (0000ms, 0778ms total)
T1C30 002:725 JLINK_WriteReg(R12, 0x00000000)  returns 0x00 (0000ms, 0778ms total)
T1C30 002:725 JLINK_WriteReg(R13 (SP), 0x20001000)  returns 0x00 (0000ms, 0778ms total)
T1C30 002:725 JLINK_WriteReg(R14, 0x20000001)  returns 0x00 (0000ms, 0778ms total)
T1C30 002:725 JLINK_WriteReg(R15 (PC), 0x20000108)  returns 0x00 (0000ms, 0778ms total)
T1C30 002:725 JLINK_WriteReg(XPSR, 0x01000000)  returns 0x00 (0000ms, 0778ms total)
T1C30 002:725 JLINK_WriteReg(MSP, 0x20001000)  returns 0x00 (0000ms, 0778ms total)
T1C30 002:725 JLINK_WriteReg(PSP, 0x20001000)  returns 0x00 (0000ms, 0778ms total)
T1C30 002:725 JLINK_WriteReg(CFBP, 0x00000000)  returns 0x00 (0000ms, 0778ms total)
T1C30 002:725 JLINK_SetBPEx(Addr = 0x20000000, Type = 0xFFFFFFF2)  returns 0x00000010 (0000ms, 0778ms total)
T1C30 002:725 JLINK_Go() (0002ms, 0780ms total)
T1C30 002:727 JLINK_IsHalted()  returns FALSE (0001ms, 0781ms total)
T1C30 002:849 JLINK_IsHalted() -- CPU_ReadMem(2 bytes @ 0x20000000)  returns TRUE (0003ms, 0783ms total)
T1C30 002:852 JLINK_ReadReg(R15 (PC))  returns 0x20000000 (0000ms, 0780ms total)
T1C30 002:852 JLINK_ClrBPEx(BPHandle = 0x00000010)  returns 0x00 (0000ms, 0780ms total)
T1C30 002:852 JLINK_ReadReg(R0)  returns 0x00000000 (0000ms, 0780ms total)
T1C30 002:852 JLINK_WriteMem(0x20000180, 0x0400 Bytes, ...) - Data: E1 FB 07 65 15 F1 E0 4E 7E BF A4 F5 80 34 5F EA ... -- CPU_WriteMem(1024 bytes @ 0x20000180)  returns 0x400 (0007ms, 0787ms total)
T1C30 002:859 JLINK_WriteReg(R0, 0x08002C00)  returns 0x00 (0000ms, 0787ms total)
T1C30 002:859 JLINK_WriteReg(R1, 0x00000400)  returns 0x00 (0000ms, 0787ms total)
T1C30 002:859 JLINK_WriteReg(R2, 0x20000180)  returns 0x00 (0000ms, 0787ms total)
T1C30 002:859 JLINK_WriteReg(R3, 0x00000000)  returns 0x00 (0000ms, 0787ms total)
T1C30 002:859 JLINK_WriteReg(R4, 0x00000000)  returns 0x00 (0000ms, 0787ms total)
T1C30 002:859 JLINK_WriteReg(R5, 0x00000000)  returns 0x00 (0000ms, 0787ms total)
T1C30 002:859 JLINK_WriteReg(R6, 0x00000000)  returns 0x00 (0000ms, 0787ms total)
T1C30 002:859 JLINK_WriteReg(R7, 0x00000000)  returns 0x00 (0000ms, 0787ms total)
T1C30 002:859 JLINK_WriteReg(R8, 0x00000000)  returns 0x00 (0000ms, 0787ms total)
T1C30 002:859 JLINK_WriteReg(R9, 0x2000017C)  returns 0x00 (0000ms, 0787ms total)
T1C30 002:859 JLINK_WriteReg(R10, 0x00000000)  returns 0x00 (0000ms, 0787ms total)
T1C30 002:859 JLINK_WriteReg(R11, 0x00000000)  returns 0x00 (0000ms, 0787ms total)
T1C30 002:859 JLINK_WriteReg(R12, 0x00000000)  returns 0x00 (0000ms, 0787ms total)
T1C30 002:859 JLINK_WriteReg(R13 (SP), 0x20001000)  returns 0x00 (0000ms, 0787ms total)
T1C30 002:859 JLINK_WriteReg(R14, 0x20000001)  returns 0x00 (0000ms, 0787ms total)
T1C30 002:859 JLINK_WriteReg(R15 (PC), 0x20000108)  returns 0x00 (0000ms, 0787ms total)
T1C30 002:859 JLINK_WriteReg(XPSR, 0x01000000)  returns 0x00 (0000ms, 0787ms total)
T1C30 002:859 JLINK_WriteReg(MSP, 0x20001000)  returns 0x00 (0000ms, 0787ms total)
T1C30 002:859 JLINK_WriteReg(PSP, 0x20001000)  returns 0x00 (0000ms, 0787ms total)
T1C30 002:859 JLINK_WriteReg(CFBP, 0x00000000)  returns 0x00 (0000ms, 0787ms total)
T1C30 002:859 JLINK_SetBPEx(Addr = 0x20000000, Type = 0xFFFFFFF2)  returns 0x00000011 (0000ms, 0787ms total)
T1C30 002:859 JLINK_Go() (0002ms, 0789ms total)
